ZPLOT2 ASCII
  Saved Data, ZView:          3
  Experiment Type:            Sweep Frequency, Control Voltage
  Date:                       09-08-2015
  Time:                       16:36:11
  Open Circuit Potential (V): 0
  Begin User Comments:        0
  End User Comments:          0
  Begin Information:          Cell Information
    Surface Area:             1
    Density:                  0
    Weight:                   0
    Polarity:                 0
    PolarityI:                0
    Corrosion Unit Type:      0
    Reference Type:           0
    Reference Potential:      0
    User-Defined Potential:   0
    Stern-Geary:              26
  End Information:            Cell Information
  Null Configuration:         0,2,0,1,9.990411,215441.9
  Data Points:                27
  IndexZ:                     6AB1DFA8C855
  Freq(Hz)	Ampl	Bias	Time(Sec)	Z'(a)	Z''(b)	Aux	Err	Range
End Comments
2.154419E+05	0.0000E+00	0.0000E+00	1.000000E+00	3.439658E+01	-2.632003E+00	0.000000E+00	0	0
1.467773E+05	0.0000E+00	0.0000E+00	2.000000E+00	3.474425E+01	-3.674034E+00	0.000000E+00	0	0
1.000244E+05	0.0000E+00	0.0000E+00	3.000000E+00	3.534782E+01	-5.074363E+00	0.000000E+00	0	0
6.812743E+04	0.0000E+00	0.0000E+00	4.000000E+00	3.636127E+01	-6.852294E+00	0.000000E+00	0	0
4.641113E+04	0.0000E+00	0.0000E+00	5.000000E+00	3.791317E+01	-8.956736E+00	0.000000E+00	0	0
3.162841E+04	0.0000E+00	0.0000E+00	6.000000E+00	4.008073E+01	-1.136384E+01	0.000000E+00	0	0
2.154541E+04	0.0000E+00	0.0000E+00	7.000000E+00	4.307081E+01	-1.412445E+01	0.000000E+00	0	0
1.467285E+04	0.0000E+00	0.0000E+00	8.000000E+00	4.734102E+01	-1.703300E+01	0.000000E+00	0	0
1.001527E+04	0.0000E+00	0.0000E+00	9.000000E+00	5.311702E+01	-1.925654E+01	0.000000E+00	0	0
6.856002E+03	0.0000E+00	0.0000E+00	1.000000E+01	5.973505E+01	-1.983622E+01	0.000000E+00	0	0
4.642427E+03	0.0000E+00	0.0000E+00	1.100000E+01	6.616701E+01	-1.862164E+01	0.000000E+00	0	0
3.160056E+03	0.0000E+00	0.0000E+00	1.200000E+01	7.137146E+01	-1.637528E+01	0.000000E+00	0	0
2.152933E+03	0.0000E+00	0.0000E+00	1.300000E+01	7.537444E+01	-1.376860E+01	0.000000E+00	0	0
1.468590E+03	0.0000E+00	0.0000E+00	1.400000E+01	7.827686E+01	-1.119407E+01	0.000000E+00	0	0
9.990404E+02	0.0000E+00	0.0000E+00	1.500000E+01	8.026917E+01	-8.947989E+00	0.000000E+00	0	0
6.810897E+02	0.0000E+00	0.0000E+00	1.600000E+01	8.161361E+01	-7.252477E+00	0.000000E+00	0	0
4.645539E+02	0.0000E+00	0.0000E+00	1.700000E+01	8.261275E+01	-6.108960E+00	0.000000E+00	0	0
3.163158E+02	0.0000E+00	0.0000E+00	1.800000E+01	8.347515E+01	-5.429483E+00	0.000000E+00	0	0
2.153445E+02	0.0000E+00	0.0000E+00	1.900000E+01	8.431709E+01	-5.117686E+00	0.000000E+00	0	0
1.467373E+02	0.0000E+00	0.0000E+00	2.000000E+01	8.520391E+01	-5.087764E+00	0.000000E+00	0	0
9.990404E+01	0.0000E+00	0.0000E+00	2.100000E+01	8.617994E+01	-5.277503E+00	0.000000E+00	0	0
6.818890E+01	0.0000E+00	0.0000E+00	2.200000E+01	8.726347E+01	-5.643153E+00	0.000000E+00	0	0
4.638027E+01	0.0000E+00	0.0000E+00	2.300000E+01	8.849466E+01	-6.166092E+00	0.000000E+00	0	0
3.158692E+01	0.0000E+00	0.0000E+00	2.400000E+01	8.988122E+01	-6.828123E+00	0.000000E+00	0	0
2.152204E+01	0.0000E+00	0.0000E+00	2.500000E+01	9.144768E+01	-7.625507E+00	0.000000E+00	0	0
1.468515E+01	0.0000E+00	0.0000E+00	2.600000E+01	9.321361E+01	-8.557676E+00	0.000000E+00	0	0
9.990411E+00	0.0000E+00	0.0000E+00	2.700000E+01	9.522897E+01	-9.643174E+00	0.000000E+00	0	0
