EC-Lab ASCII FILE
Nb header lines : 78                          

Potentio Electrochemical Impedance Spectroscopy

Run on channel : 2 (SN 6986)
Grouped channel(s) : 2
User : 
CE vs. WE compliance from -10 V to 10 V
Electrode connection : standard
Ewe ctrl range : min = -10,00 V, max = 10,00 V
Acquisition started on : 02.12.2015 14:59:29
Saved on :
	File : LiCoO2_LATP_Li_06_PEIS_C02.mpr
	Directory : C:\Hupfer\Studenten Batterietests\LiCoO2_LATP_Li\PEIS_GCPL\
	Host : 192.168.0.2
Device : VMP3 (SN 0324)
Address : 192.168.0.1
EC-Lab for windows v10.33 (software)
Internet server v10.33 (firmware)
Command interpretor v10.32 (firmware)
Electrode material : 
Initial state : 
Electrolyte : 
Comments : 
Mass of active material : 0,001 mg
 at x = 0,000
Molecular weight of active material (at x = 0) : 0,001 g/mol
Atomic weight of intercalated ion : 0,001 g/mol
Acquisition started at : xo = 0,000
Number of e- transfered per intercalated ion : 1
for DX = 1, DQ = 26,801 mA.h
Battery capacity : 0,000 A.h
Electrode surface area : 0,001 cm²
Characteristic mass : 0,001 g
Multi Sine          0                   
E (V)               0,0000              
vs.                 Eoc                 
tE (h:m:s)          0:00:0,0000         
record              0                   
dI                  0,000               
unit dI             mA                  
dt (s)              0,000               
fi                  1,000               
unit fi             MHz                 
ff                  1,000               
unit ff             Hz                  
Sel Nd              1                   
Nd                  6                   
Nt                  51                  
Log                 1                   
Va (mV)             10,0                
pw                  0,10                
Na                  2                   
E range min (V)     -10,000             
E range max (V)     10,000              
I Range             Auto                
Bandwidth           5                   
corr                0                   
nc cycles           0                   
goto Ns'            0                   
nr cycles           0                   
inc. cycle          0                   

Number of loops : 11
Loop 0 from point number 0 to 36
Loop 1 from point number 37 to 73
Loop 2 from point number 74 to 110
Loop 3 from point number 111 to 147
Loop 4 from point number 148 to 184
Loop 5 from point number 185 to 221
Loop 6 from point number 222 to 258
Loop 7 from point number 259 to 295
Loop 8 from point number 296 to 332
Loop 9 from point number 333 to 369
Loop 10 from point number 370 to 406

freq/Hz	Re(Z)/Ohm	-Im(Z)/Ohm	|Z|/Ohm	Phase(Z)/deg	time/s	<Ewe>/V	<I>/mA	Cs/µF	Cp/µF	cycle number	I Range	|Ewe|/V	|I|/A	Re(Y)/Ohm-1	Im(Y)/Ohm-1	|Y|/Ohm-1	Phase(Y)/deg
1000024,25	297,199585	809,253479	862,101379	-69,8341599	1845,1133	1,78451145	-0,00168692181	0,000196664085	0,000173291599	1	12	0,0052892426	6,13529073E-006	0,000399881741	0,0010888495	0,00115995633	69,8341599
681286,5	300,156982	876,516052	926,485107	-71,0965805	1845,4273	1,7855401	0,000131233101	0,000266520394	0,000238546651	1	12	0,0103647858	1,11872123E-005	0,000349680602	0,00102113467	0,00107934815	71,0965805
464160,125	420,019836	1193,33508	1265,09497	-70,6093903	1845,8433	1,78552282	0,000123406324	0,00028733589	0,000255663355	1	12	0,0101218671	8,00087491E-006	0,000262436079	0,00074561761	0,000790454505	70,6093903
316223,094	618,499878	1638,00061	1750,88208	-69,3137436	1846,1573	1,78550053	0,000118263037	0,000307264592	0,000268922304	1	12	0,0109977284	6,28125008E-006	0,000201755698	0,000534318562	0,00057114067	69,3137436
215441,859	933,378967	2196,89063	2386,94873	-66,9811249	1846,5733	1,78547919	0,000133021851	0,000336264959	0,000284847425	1	12	0,010115183	4,23770416E-006	0,000163821853	0,000385586871	0,000418944896	66,9811249
146777,328	1412,60754	2865,02368	3194,34204	-63,7542763	1846,8873	1,78548527	0,000127561769	0,000378471304	0,000304457411	1	12	0,0106447972	3,33239109E-006	0,000138439078	0,000280779495	0,000313053519	63,7542763
100024,406	2086,31494	3644,21997	4199,17236	-60,2088776	1847,2013	1,78545332	9,58637393E-005	0,000436625967	0,000328845083	1	12	0,0106670028	2,54026327E-006	0,000118318436	0,00020666988	0,000238142165	60,2088776
68127,4297	2805,00586	4331,5918	5160,49854	-57,0741463	1847,7493	1,78544641	1,20269542E-005	0,000539325061	0,000379981415	1	13	0,00952039938	1,84486032E-006	0,0001053296	0,000162653785	0,000193779721	57,0741463
46411,125	3748,87158	5294,45166	6487,31494	-54,6986237	1848,0633	1,78546011	1,24220469E-005	0,000647704699	0,000431408873	1	13	0,0104718097	1,6141978E-006	8,90780284E-005	0,00012580301	0,000154146983	54,6986237
31628,4121	4814,16504	6383,11963	7995,02344	-52,9763107	1848,3773	1,78545392	1,00420857E-005	0,000788333127	0,000502500217	1	13	0,0105577614	1,32054163E-006	7,53149943E-005	9,98604446E-005	0,0001250778	52,9763107
21545,4082	5943,51318	7693,60986	9721,98438	-52,3129807	1848,6913	1,78544796	1,1661642E-005	0,000960141479	0,000601292413	1	13	0,0103316773	1,06271284E-006	6,28830239E-005	8,13992301E-005	0,00010285966	52,3129807
14672,8496	7066,07129	9472,8418	11817,9561	-53,2796593	1849,0053	1,78546238	9,57242173E-006	0,00114505249	0,000735700771	1	13	0,0100032194	8,4644239E-007	5,05933313E-005	6,78258948E-005	8,46170005E-005	53,2796593
10015,2705	8093,45898	12016,6436	14488,0576	-56,0389137	1849,2576	1,78549016	9,37672849E-006	0,00132243475	0,000909746275	1	13	0,00995481666	6,87105E-007	3,85579442E-005	5,72483368E-005	6,90223678E-005	56,0389137
6856,00244	9258,74902	15732,3975	18254,6641	-59,5225563	1849,6070	1,78551602	1,2233786E-005	0,00147555105	0,00109596422	1	13	0,0097462628	5,33905336E-007	2,7784632E-005	4,7211437E-005	5,47805212E-005	59,5225563
4642,42725	10518,5996	21136,2754	23608,9609	-63,5424805	1850,2732	1,78550303	1,05797426E-005	0,00162198406	0,0013000191	1	13	0,00990386866	4,1949616E-007	1,88714002E-005	3,79205558E-005	4,23567981E-005	63,5424805
3160,05566	12310,1689	28998,8301	31503,5293	-66,998497	1850,7242	1,78550529	1,30286489E-005	0,0017367804	0,00147159211	1	13	0,0101329079	3,21643569E-007	1,24035396E-005	2,9218776E-005	3,17424747E-005	66,998497
2152,93286	14544,6104	40196,9492	42747,4023	-70,1081696	1851,4207	1,78550351	2,29958891E-006	0,00183906266	0,00162616	1	14	0,010908206	2,55178207E-007	7,95944197E-006	2,19975154E-005	2,33932351E-005	70,1081696
1468,58972	17424,3418	56044,9766	58691,1172	-72,7295685	1851,8717	1,78549671	2,73792466E-006	0,00193367281	0,00176324078	1	14	0,0106255822	1,81042424E-007	5,05838261E-006	1,62701654E-005	1,70383537E-005	72,7295685
999,040405	21953,5332	78910,1875	81907,1172	-74,4529495	1852,3227	1,78550041	2,0260909E-006	0,00201884983	0,00187381578	1	14	0,0104593551	1,2769776E-007	3,27236035E-006	1,1762234E-005	1,22089514E-005	74,4529495
681,089661	28349,6035	110823,172	114391,766	-75,6509171	1852,7732	1,78550088	2,75749085E-006	0,00210855645	0,00197905046	1	14	0,0103689088	9,06438373E-008	2,16649369E-006	8,46917374E-006	8,74188754E-006	75,6509171
464,553894	39142,2266	155336,469	160192,172	-75,8568497	1853,2247	1,78549469	2,50971402E-006	0,00220551784	0,00207383814	1	14	0,0103238262	6,44465104E-008	1,52532652E-006	6,0532816E-006	6,24250242E-006	75,8568497
316,315765	54816,4102	218011,281	224797,141	-75,8862152	1853,6736	1,78549337	2,41569114E-006	0,00230791769	0,00217068451	1	14	0,0103051672	4,5842075E-008	1,08474842E-006	4,31417129E-006	4,448455E-006	75,8862152
215,344498	76013,4063	302883,188	312275,938	-75,9116745	1854,1242	1,78550363	2,50859512E-006	0,00244011986	0,00229553785	1	14	0,0102924192	3,29593739E-008	7,79494542E-007	3,10597625E-006	3,20229606E-006	75,9116745
146,737289	112686,789	422855,813	437613,25	-75,0780411	1854,5711	1,78550422	2,387922E-006	0,00256499974	0,00239491998	1	14	0,0102904467	2,3514934E-008	5,88426303E-007	2,2080626E-006	2,28512272E-006	75,0780411
99,9040375	173053,563	568741,75	594486,938	-73,0763397	1855,0227	1,78550196	2,71359977E-006	0,00280105718	0,00256370218	1	14	0,0102835018	1,72981132E-008	4,89661375E-007	1,60927584E-006	1,68212273E-006	73,0763397
68,1888962	230486,25	783780,5	816967,438	-73,6129761	1855,4848	1,78549874	2,82560654E-006	0,00297791301	0,00274088886	1	14	0,0102859102	1,25903554E-008	3,45331017E-007	1,17431591E-006	1,22403901E-006	73,6129761
46,3802681	483885,219	1138567,25	1237125,88	-66,974762	1855,9235	1,78549755	2,69598786E-006	0,00301389559	0,0025528057	1	14	0,0102827372	8,3117957E-009	3,1616554E-007	7,43928069E-007	8,08325183E-007	66,974762
31,5869217	564679,625	1533547,38	1634206,38	-69,7853851	1856,3535	1,78550076	2,36704841E-006	0,00328560709	0,00289331842	1	14	0,0102826748	6,29215213E-009	2,11440593E-007	5,74226704E-007	6,11917812E-007	69,7853851
21,5220375	987141,125	1857806,75	2103780,75	-62,0161629	1856,7753	1,78549385	2,20201946E-006	0,00398048712	0,00310410466	1	14	0,0102805058	4,88668128E-009	2,23037716E-007	4,19758578E-007	4,75334701E-007	62,0161629
14,6851501	1365420,38	2493634	2842988,5	-61,2965431	1857,2358	1,78550231	2,39006499E-006	0,00434619375	0,00334367668	1	14	0,0102854827	3,6178418E-009	1,68933639E-007	3,08519418E-007	3,51742528E-007	61,2965431
9,9904108	2250812,75	2429996,5	3312256,25	-47,1922417	1857,6867	1,78550279	2,59423086E-006	0,00655588228	0,00352853606	1	14	0,0102829952	3,10452886E-009	2,05159452E-007	2,21491874E-007	3,01909012E-007	47,1922417
6,81718969	2681567,5	2164705	3446266,5	-38,9123306	1858,0261	1,78550172	2,03876198E-006	0,010784898	0,00425515836	1	14	0,0102855405	2,98454594E-009	2,25782884E-007	1,8226406E-007	2,90169083E-007	38,9123306
4,63925123	3971011	2397114	4638435,5	-31,1174202	1858,5111	1,78550303	2,47029584E-006	0,0143114468	0,00382223935	1	14	0,01028171	2,2166331E-009	1,84568705E-007	1,1141551E-007	2,15589935E-007	31,1174202
3,16039586	4261758,5	3093548,25	5266177,5	-35,9753494	1859,2050	1,78551066	2,17319484E-006	0,0162787754	0,00561751891	1	14	0,0102823433	1,95252503E-009	1,53673099E-007	1,11549056E-007	1,89891054E-007	35,9753494
2,1522038	6261673,5	2458470,25	6727007,5	-21,43606	1860,2103	1,78551435	2,24238693E-006	0,0300795808	0,00401751837	1	14	0,0102825295	1,5285444E-009	1,38371476E-007	5,43276748E-008	1,48654507E-007	21,43606
1,46630979	6108432,5	2673269,75	6667782	-23,6359177	1861,6718	1,78551364	2,18394143E-006	0,0406023934	0,00652641105	1	14	0,0102842823	1,54238433E-009	1,37393755E-007	6,01284498E-008	1,49974909E-007	23,6359177
0,998529792	6698644,5	2181689,75	7044970,5	-18,0399761	1863,8044	1,78551269	2,19374169E-006	0,0730577186	0,00700638071	1	14	0,0102845458	1,45984225E-009	1,34967308E-007	4,39576695E-008	1,41945236E-007	18,0399761
1000024,25	337,283936	702,53894	779,308289	-64,3546677	23491,2208	4,99957991	0,00275682122	0,000226537042	0,000184103235	2	12	0,00545881269	7,00468991E-006	0,000555363193	0,00115678285	0,00128318928	64,3546677
681286,5	302,818909	863,843689	915,382568	-70,6819763	23491,5348	4,99998188	0,00103003334	0,000270430202	0,000240835347	2	12	0,0102236979	1,11687705E-005	0,000361391256	0,00103093171	0,0010924394	70,6819763
464160,125	421,181122	1175,53577	1248,71045	-70,2879715	23491,9508	4,99997997	0,00102625031	0,000291686592	0,000258502463	2	12	0,0101510575	8,12923281E-006	0,000270112971	0,000753897591	0,000800826179	70,2879715
316223,094	616,986816	1613,2854	1727,24133	-69,0710907	23492,2649	4,99995804	0,0010062923	0,000311971817	0,000272164645	2	12	0,010985489	6,36013556E-006	0,000206809156	0,000540760753	0,000578957901	69,0710907
215441,859	928,584961	2166,90723	2357,4895	-66,8034134	23492,5788	4,99995089	0,000991291017	0,000340917846	0,000288025418	2	12	0,0109842019	4,65927906E-006	0,000167079066	0,000389888824	0,000424180034	66,8034134
146777,328	1402,31482	2809,12573	3139,69336	-63,4716415	23492,8929	4,99993086	0,000978377066	0,000386002386	0,000308999559	2	12	0,0108273774	3,44854607E-006	0,000142256162	0,00028496841	0,000318502454	63,4716415
100024,406	1999,96667	3529,89453	4057,09521	-60,4649887	23493,2068	5,00012016	0,000976234092	0,000450767315	0,000341228646	2	12	0,010614072	2,61617515E-006	0,000121504498	0,000214452608	0,000246481766	60,4649887
68127,4297	2791,95605	4244,86133	5080,73486	-56,6660347	23493,7548	4,99992132	0,000776086585	0,00055034447	0,000384156854	2	13	0,0095066214	1,87111152E-006	0,000108157226	0,000164441124	0,000196821915	56,6660347
46411,125	3732,15381	5173,75391	6379,39648	-54,1947212	23494,0689	4,99990845	0,000798982219	0,000662814942	0,000435957976	2	13	0,010427502	1,63455934E-006	9,17065408E-005	0,000127129577	0,000156754642	54,1947212
31628,4121	4774,42676	6217,2085	7838,93066	-52,4779968	23494,3829	4,99990892	0,000749797095	0,000809370365	0,000509125122	2	13	0,0105653964	1,34781089E-006	7,7697594E-005	0,000101177	0,000127568419	52,4779968
21545,4082	5872,28955	7478,03271	9508,1416	-51,858448	23494,6968	4,99991846	0,000721051358	0,000987820444	0,000611028518	2	13	0,0103033483	1,08363429E-006	6,49555295E-005	8,2717248E-005	0,000105173021	51,858448
14672,8496	6933,77441	9228,92773	11543,4111	-53,0821419	23495,0109	4,99990749	0,000711304194	0,00117531535	0,000751257059	2	13	0,010136879	8,78152832E-007	5,20356989E-005	6,92600734E-005	8,66295086E-005	53,0821419
10015,2705	8003,3584	11681,2529	14159,9932	-55,5831795	23495,2631	4,99994183	0,000698696182	0,00136040431	0,00092580769	2	13	0,010096374	7,13021109E-007	3,99159217E-005	5,82590365E-005	7,06214996E-005	55,5831795
6856,00244	9106,8291	15170,0527	17693,6387	-59,0229225	23495,6125	4,99996805	0,000679546618	0,0015302489	0,00112486898	2	13	0,0098835174	5,5859158E-007	2,90892749E-005	4,84565862E-005	5,65174887E-005	59,0229225
4642,42725	10591,2969	20528,1113	23099,3281	-62,708931	23496,0637	4,99995613	0,000704271428	0,00167003681	0,00131894089	2	13	0,00909042731	3,93536425E-007	1,984954E-005	3,84724917E-005	4,32913039E-005	62,708931
3160,05566	12648,7852	28018,9395	30741,7109	-65,7038269	23496,5147	4,99996471	0,000702329446	0,00179751986	0,00149321044	2	13	0,00929911528	3,02491799E-007	1,33842086E-005	2,96480157E-005	3,2529093E-005	65,7038269
2152,93286	15139,0146	38900,4492	41742,4805	-68,7353439	23497,2112	4,99996424	0,000683714752	0,00190035638	0,00165039441	2	14	0,0100120874	2,39853676E-007	8,68842562E-006	2,2325341E-005	2,39564106E-005	68,7353439
1468,58972	18765,582	53826,9453	57004,2734	-70,780014	23497,6622	4,99996519	0,000677471806	0,00201335317	0,00179516582	2	14	0,00974964723	1,71033619E-007	5,7749362E-006	1,65647507E-005	1,75425448E-005	70,780014
999,040405	24497,2813	75228,3359	79116,4922	-71,9627304	23498,1132	4,99997616	0,000672395399	0,0021176571	0,00191462843	2	14	0,00959930569	1,21331283E-007	3,91366666E-006	1,20184213E-005	1,26395898E-005	71,9627304
681,089661	33845,4648	104865,5	110192,055	-72,1124573	23498,5637	4,99997234	0,000668023713	0,00222834898	0,00201812433	2	14	0,00951847155	8,63807443E-008	2,78740345E-006	8,63638707E-006	9,07506455E-006	72,1124573
464,553894	47807,0195	145445,203	153100,688	-71,8045959	23499,0152	4,99996662	0,000663425133	0,00235550827	0,00212583295	2	14	0,00947644282	6,18967988E-008	2,03956438E-006	6,20504807E-006	6,53164943E-006	71,8045959
316,315765	71190,8984	198345,953	210735,047	-70,2557755	23499,4642	4,99996376	0,000658576027	0,00253673992	0,00224723807	2	14	0,00945092645	4,4847436E-008	1,60306433E-006	4,4663193E-006	4,74529497E-006	70,2557755
215,344498	112118,852	266514,875	289138,063	-67,1842346	23499,9147	4,99996614	0,000654425065	0,00277309585	0,00235611922	2	14	0,00944132358	3,26533396E-008	1,34112133E-006	3,18794582E-006	3,45855528E-006	67,1842346
146,737289	173586,453	352551,625	392969,344	-63,7856674	23500,3616	4,99995613	0,000650488189	0,00307649979	0,00247619604	2	14	0,00943640899	2,4013092E-008	1,12408327E-006	2,28299723E-006	2,54472775E-006	63,7856674
99,9040375	261971,031	453969,375	524134,531	-60,012146	23500,8132	4,99996519	0,000651472132	0,0035092195	0,00263255904	2	14	0,00943318289	1,79976372E-008	9,53603262E-007	1,65249821E-006	1,90790706E-006	60,012146
68,1888962	420457,813	560152,688	700396,875	-53,1076355	23501,2753	4,99996424	0,000649513095	0,00416677492	0,00266516744	2	14	0,00942978729	1,34634917E-008	8,57104965E-007	1,14187355E-006	1,42776196E-006	53,1076355
46,3802681	547576,938	579783,938	797489,75	-46,6364098	23501,7141	4,99996233	0,000645337452	0,00591862295	0,00312825991	2	14	0,00943492912	1,18307844E-008	8,60983619E-007	9,11624397E-007	1,25393456E-006	46,6364098
31,5869217	772479,125	681540,438	1030156	-41,4212151	23502,1439	4,99996471	0,000642249244	0,00739300903	0,00323592522	2	14	0,00943217985	9,15606968E-009	7,27915165E-007	6,42222687E-007	9,70726774E-007	41,4212151
21,5220375	1003798,13	674007,25	1209089,13	-33,8796616	23502,5658	4,99995041	0,000639188976	0,0109716561	0,00340945297	2	14	0,00943178497	7,80073606E-009	6,86641044E-007	4,61049922E-007	8,27068902E-007	33,8796616
14,6851501	1227108,75	683443,563	1404596,38	-29,1158123	23503,0263	4,99996281	0,000636061421	0,0158576593	0,0037544067	2	14	0,00943327509	6,7160042E-009	6,21985066E-007	3,46417323E-007	7,11948303E-007	29,1158123
9,9904108	1309692,13	671162,563	1471649,63	-27,1332474	23503,4772	4,99996328	0,000633008371	0,023736082	0,00493691489	2	14	0,00943400338	6,41049569E-009	6,04728427E-007	3,09898098E-007	6,79509583E-007	27,1332474
6,81718969	1786756,75	657243,313	1903803,63	-20,1956177	23503,8166	4,99996042	0,000632080773	0,0355212763	0,00423347112	2	14	0,00943551958	4,95614128E-009	4,92970742E-007	1,8133511E-007	5,25264284E-007	20,1956177
4,63925123	1566946,63	498797,219	1644421	-17,6575375	23504,3016	4,99995327	0,000631986186	0,0687777922	0,0063280547	2	14	0,00943302643	5,73638159E-009	5,79466246E-007	1,84458202E-007	6,0811675E-007	17,6575375
3,16039586	1755430,88	259566,594	1774517,5	-8,41108799	23504,9955	4,99996138	0,000631803647	0,194012567	0,00415113522	2	14	0,00943557546	5,31726263E-009	5,57472163E-007	8,24305602E-008	5,6353349E-007	8,41108799
2,1522038	1943188,38	224809,797	1956149,38	-6,5992794	23506,0008	4,99996901	0,00063386868	0,32894364	0,00434458116	2	14	0,0094333645	4,82241536E-009	5,07821198E-007	5,87504481E-008	5,11208384E-007	6,5992794
1,46630979	1765902,75	311778,688	1793214,63	-10,012661	23507,4623	4,99997139	0,000631852483	0,348135263	0,0105238901	2	14	0,00943149813	5,25954791E-009	5,4916427E-007	9,69576064E-008	5,57657756E-007	10,012661
0,998529792	1254829,75	-206679,047	1271736,63	9,35303211	23509,5939	4,99997807	0,000615086581	-0,771192253	-0,0203686003	2	14	0,00942727551	7,41291517E-009	7,75872707E-007	-1,27791523E-007	7,86326325E-007	-9,35303211
1000024,25	98,4840775	608,550659	616,468201	-80,8073044	45125,7910	4,99844456	0,00582215283	0,000261524779	0,000254850194	3	11	0,0101900781	1,65297715E-005	0,000259146123	0,00160130986	0,00162214367	80,8073044
681286,5	302,611237	859,072754	910,812561	-70,5950165	45126,4410	4,99964523	0,00102282153	0,000271932047	0,000241914691	3	12	0,00942083541	1,03433304E-005	0,000364776643	0,00103555201	0,0010979207	70,5950165
464160,125	419,620239	1170,02026	1242,99182	-70,2699585	45126,8570	4,99964619	0,000986166648	0,000293061603	0,000259662454	3	12	0,01015874	8,17281307E-006	0,000271593803	0,000757280679	0,00080451055	70,2699585
316223,094	617,272217	1602,28918	1717,07764	-68,9311218	45127,1710	4,99962234	0,000978470314	0,000314112811	0,00027351905	3	12	0,0109805409	6,39490054E-006	0,000209361533	0,00054345181	0,000582384877	68,9311218
215441,859	927,642273	2150,26172	2341,8252	-66,6641998	45127,4850	4,99962425	0,000956555596	0,000343556952	0,000289649266	3	12	0,0109687652	4,68385315E-006	0,000169149818	0,000392086949	0,000427017367	66,6641998
146777,328	1386,98206	2800,55957	3125,19653	-63,6530037	45127,7990	4,99961424	0,00095277268	0,00038718307	0,000310921896	3	12	0,0108070318	3,45803278E-006	0,000142009114	0,00028674124	0,000319979881	63,6530037
100024,406	2014,13342	3494,84717	4033,69434	-60,0445023	45128,1130	4,99978065	0,000957151875	0,000455287751	0,000341771927	3	12	0,0104964515	2,60219304E-006	0,000123789054	0,000214794039	0,000247911696	60,0445023
