ZPLOT2 ASCII
  Saved Data, ZView:          3
  Experiment Type:            Sweep Frequency, Control Voltage
  Date:                       09-08-2015
  Time:                       21:16:12
  Open Circuit Potential (V): 0
  Begin User Comments:        0
  End User Comments:          0
  Begin Information:          Cell Information
    Surface Area:             1
    Density:                  0
    Weight:                   0
    Polarity:                 0
    PolarityI:                0
    Corrosion Unit Type:      0
    Reference Type:           0
    Reference Potential:      0
    User-Defined Potential:   0
    Stern-Geary:              26
  End Information:            Cell Information
  Null Configuration:         0,2,0,1,9.990411,316223.1
  Data Points:                28
  IndexZ:                     6110A4B5571C
  Freq(Hz)	Ampl	Bias	Time(Sec)	Z'(a)	Z''(b)	Aux	Err	Range
End Comments
3.162231E+05	0.0000E+00	0.0000E+00	1.000000E+00	1.286551E+01	-9.210761E-01	0.000000E+00	0	0
2.154419E+05	0.0000E+00	0.0000E+00	2.000000E+00	1.292126E+01	-1.346276E+00	0.000000E+00	0	0
1.467773E+05	0.0000E+00	0.0000E+00	3.000000E+00	1.303915E+01	-1.959561E+00	0.000000E+00	0	0
1.000244E+05	0.0000E+00	0.0000E+00	4.000000E+00	1.328458E+01	-2.826403E+00	0.000000E+00	0	0
6.812743E+04	0.0000E+00	0.0000E+00	5.000000E+00	1.378055E+01	-4.006087E+00	0.000000E+00	0	0
4.641113E+04	0.0000E+00	0.0000E+00	6.000000E+00	1.471837E+01	-5.486188E+00	0.000000E+00	0	0
3.162841E+04	0.0000E+00	0.0000E+00	7.000000E+00	1.629525E+01	-7.092869E+00	0.000000E+00	0	0
2.154541E+04	0.0000E+00	0.0000E+00	8.000000E+00	1.852201E+01	-8.495788E+00	0.000000E+00	0	0
1.467285E+04	0.0000E+00	0.0000E+00	9.000000E+00	2.109880E+01	-9.483988E+00	0.000000E+00	0	0
1.001527E+04	0.0000E+00	0.0000E+00	1.000000E+01	2.372827E+01	-1.021370E+01	0.000000E+00	0	0
6.856002E+03	0.0000E+00	0.0000E+00	1.100000E+01	2.648704E+01	-1.089521E+01	0.000000E+00	0	0
4.642427E+03	0.0000E+00	0.0000E+00	1.200000E+01	2.965589E+01	-1.140984E+01	0.000000E+00	0	0
3.160056E+03	0.0000E+00	0.0000E+00	1.300000E+01	3.292736E+01	-1.147032E+01	0.000000E+00	0	0
2.152933E+03	0.0000E+00	0.0000E+00	1.400000E+01	3.600364E+01	-1.118863E+01	0.000000E+00	0	0
1.468590E+03	0.0000E+00	0.0000E+00	1.500000E+01	3.890932E+01	-1.083784E+01	0.000000E+00	0	0
9.990404E+02	0.0000E+00	0.0000E+00	1.600000E+01	4.189961E+01	-1.033668E+01	0.000000E+00	0	0
6.810897E+02	0.0000E+00	0.0000E+00	1.700000E+01	4.481754E+01	-9.360489E+00	0.000000E+00	0	0
4.645539E+02	0.0000E+00	0.0000E+00	1.800000E+01	4.722050E+01	-7.892861E+00	0.000000E+00	0	0
3.163158E+02	0.0000E+00	0.0000E+00	1.900000E+01	4.886244E+01	-6.315600E+00	0.000000E+00	0	0
2.153445E+02	0.0000E+00	0.0000E+00	2.000000E+01	4.985313E+01	-5.015838E+00	0.000000E+00	0	0
1.467373E+02	0.0000E+00	0.0000E+00	2.100000E+01	5.044859E+01	-4.152328E+00	0.000000E+00	0	0
9.990404E+01	0.0000E+00	0.0000E+00	2.200000E+01	5.086079E+01	-3.727884E+00	0.000000E+00	0	0
6.818890E+01	0.0000E+00	0.0000E+00	2.300000E+01	5.121789E+01	-3.708683E+00	0.000000E+00	0	0
4.638027E+01	0.0000E+00	0.0000E+00	2.400000E+01	5.160641E+01	-4.072969E+00	0.000000E+00	0	0
3.158692E+01	0.0000E+00	0.0000E+00	2.500000E+01	5.207882E+01	-4.827170E+00	0.000000E+00	0	0
2.152204E+01	0.0000E+00	0.0000E+00	2.600000E+01	5.268612E+01	-6.014155E+00	0.000000E+00	0	0
1.468515E+01	0.0000E+00	0.0000E+00	2.700000E+01	5.348047E+01	-7.711053E+00	0.000000E+00	0	0
9.990411E+00	0.0000E+00	0.0000E+00	2.800000E+01	5.453996E+01	-1.007076E+01	0.000000E+00	0	0
