ZPLOT2 ASCII
  Saved Data, ZView:          3
  Experiment Type:            Sweep Frequency, Control Voltage
  Date:                       09-08-2015
  Time:                       21:06:58
  Open Circuit Potential (V): 0
  Begin User Comments:        0
  End User Comments:          0
  Begin Information:          Cell Information
    Surface Area:             1
    Density:                  0
    Weight:                   0
    Polarity:                 0
    PolarityI:                0
    Corrosion Unit Type:      0
    Reference Type:           0
    Reference Potential:      0
    User-Defined Potential:   0
    Stern-Geary:              26
  End Information:            Cell Information
  Null Configuration:         0,2,0,1,9.990411,316223.1
  Data Points:                28
  IndexZ:                     CD27DAE06A39
  Freq(Hz)	Ampl	Bias	Time(Sec)	Z'(a)	Z''(b)	Aux	Err	Range
End Comments
3.162231E+05	0.0000E+00	0.0000E+00	1.000000E+00	9.787245E+00	-1.391888E+00	0.000000E+00	0	0
2.154419E+05	0.0000E+00	0.0000E+00	2.000000E+00	9.914493E+00	-2.000609E+00	0.000000E+00	0	0
1.467773E+05	0.0000E+00	0.0000E+00	3.000000E+00	1.015700E+01	-2.847667E+00	0.000000E+00	0	0
1.000244E+05	0.0000E+00	0.0000E+00	4.000000E+00	1.059915E+01	-3.975236E+00	0.000000E+00	0	0
6.812743E+04	0.0000E+00	0.0000E+00	5.000000E+00	1.133085E+01	-5.388495E+00	0.000000E+00	0	0
4.641113E+04	0.0000E+00	0.0000E+00	6.000000E+00	1.237716E+01	-7.072882E+00	0.000000E+00	0	0
3.162841E+04	0.0000E+00	0.0000E+00	7.000000E+00	1.370777E+01	-9.130421E+00	0.000000E+00	0	0
2.154541E+04	0.0000E+00	0.0000E+00	8.000000E+00	1.544730E+01	-1.184261E+01	0.000000E+00	0	0
1.467285E+04	0.0000E+00	0.0000E+00	9.000000E+00	1.807285E+01	-1.543348E+01	0.000000E+00	0	0
1.001527E+04	0.0000E+00	0.0000E+00	1.000000E+01	2.229817E+01	-1.964570E+01	0.000000E+00	0	0
6.856002E+03	0.0000E+00	0.0000E+00	1.100000E+01	2.856890E+01	-2.353180E+01	0.000000E+00	0	0
4.642427E+03	0.0000E+00	0.0000E+00	1.200000E+01	3.666010E+01	-2.596673E+01	0.000000E+00	0	0
3.160056E+03	0.0000E+00	0.0000E+00	1.300000E+01	4.493325E+01	-2.648461E+01	0.000000E+00	0	0
2.152933E+03	0.0000E+00	0.0000E+00	1.400000E+01	5.273066E+01	-2.580511E+01	0.000000E+00	0	0
1.468590E+03	0.0000E+00	0.0000E+00	1.500000E+01	6.013608E+01	-2.425603E+01	0.000000E+00	0	0
9.990404E+02	0.0000E+00	0.0000E+00	1.600000E+01	6.695503E+01	-2.155195E+01	0.000000E+00	0	0
6.810897E+02	0.0000E+00	0.0000E+00	1.700000E+01	7.231164E+01	-1.795452E+01	0.000000E+00	0	0
4.645539E+02	0.0000E+00	0.0000E+00	1.800000E+01	7.592698E+01	-1.433261E+01	0.000000E+00	0	0
3.163158E+02	0.0000E+00	0.0000E+00	1.900000E+01	7.820026E+01	-1.138435E+01	0.000000E+00	0	0
2.153445E+02	0.0000E+00	0.0000E+00	2.000000E+01	7.968983E+01	-9.359380E+00	0.000000E+00	0	0
1.467373E+02	0.0000E+00	0.0000E+00	2.100000E+01	8.082930E+01	-8.199513E+00	0.000000E+00	0	0
9.990404E+01	0.0000E+00	0.0000E+00	2.200000E+01	8.188844E+01	-7.757563E+00	0.000000E+00	0	0
6.818890E+01	0.0000E+00	0.0000E+00	2.300000E+01	8.301115E+01	-7.908937E+00	0.000000E+00	0	0
4.638027E+01	0.0000E+00	0.0000E+00	2.400000E+01	8.431396E+01	-8.575712E+00	0.000000E+00	0	0
3.158692E+01	0.0000E+00	0.0000E+00	2.500000E+01	8.585824E+01	-9.714517E+00	0.000000E+00	0	0
2.152204E+01	0.0000E+00	0.0000E+00	2.600000E+01	8.771679E+01	-1.132223E+01	0.000000E+00	0	0
1.468515E+01	0.0000E+00	0.0000E+00	2.700000E+01	8.995870E+01	-1.342084E+01	0.000000E+00	0	0
9.990411E+00	0.0000E+00	0.0000E+00	2.800000E+01	9.270093E+01	-1.609638E+01	0.000000E+00	0	0
