ZPLOT2 ASCII
  Saved Data, ZView:          3
  Experiment Type:            Sweep Frequency, Control Voltage
  Date:                       09-08-2015
  Time:                       20:53:29
  Open Circuit Potential (V): 0
  Begin User Comments:        0
  End User Comments:          0
  Begin Information:          Cell Information
    Surface Area:             1
    Density:                  0
    Weight:                   0
    Polarity:                 0
    PolarityI:                0
    Corrosion Unit Type:      0
    Reference Type:           0
    Reference Potential:      0
    User-Defined Potential:   0
    Stern-Geary:              26
  End Information:            Cell Information
  Null Configuration:         0,2,0,1,9.990411,316223.1
  Data Points:                28
  IndexZ:                     E49B47CEDD13
  Freq(Hz)	Ampl	Bias	Time(Sec)	Z'(a)	Z''(b)	Aux	Err	Range
End Comments
3.162231E+05	0.0000E+00	0.0000E+00	1.000000E+00	1.351807E+01	-1.220154E+00	0.000000E+00	0	0
2.154419E+05	0.0000E+00	0.0000E+00	2.000000E+00	1.363663E+01	-1.771598E+00	0.000000E+00	0	0
1.467773E+05	0.0000E+00	0.0000E+00	3.000000E+00	1.388102E+01	-2.543678E+00	0.000000E+00	0	0
1.000244E+05	0.0000E+00	0.0000E+00	4.000000E+00	1.436355E+01	-3.570967E+00	0.000000E+00	0	0
6.812743E+04	0.0000E+00	0.0000E+00	5.000000E+00	1.524312E+01	-4.816075E+00	0.000000E+00	0	0
4.641113E+04	0.0000E+00	0.0000E+00	6.000000E+00	1.663416E+01	-6.100873E+00	0.000000E+00	0	0
3.162841E+04	0.0000E+00	0.0000E+00	7.000000E+00	1.844653E+01	-7.193796E+00	0.000000E+00	0	0
2.154541E+04	0.0000E+00	0.0000E+00	8.000000E+00	2.042651E+01	-8.082282E+00	0.000000E+00	0	0
1.467285E+04	0.0000E+00	0.0000E+00	9.000000E+00	2.250606E+01	-9.010283E+00	0.000000E+00	0	0
1.001527E+04	0.0000E+00	0.0000E+00	1.000000E+01	2.494311E+01	-1.008074E+01	0.000000E+00	0	0
6.856002E+03	0.0000E+00	0.0000E+00	1.100000E+01	2.797719E+01	-1.097351E+01	0.000000E+00	0	0
4.642427E+03	0.0000E+00	0.0000E+00	1.200000E+01	3.150033E+01	-1.121272E+01	0.000000E+00	0	0
3.160056E+03	0.0000E+00	0.0000E+00	1.300000E+01	3.477022E+01	-1.073264E+01	0.000000E+00	0	0
2.152933E+03	0.0000E+00	0.0000E+00	1.400000E+01	3.755307E+01	-9.981748E+00	0.000000E+00	0	0
1.468590E+03	0.0000E+00	0.0000E+00	1.500000E+01	4.005139E+01	-9.234172E+00	0.000000E+00	0	0
9.990404E+02	0.0000E+00	0.0000E+00	1.600000E+01	4.244956E+01	-8.345397E+00	0.000000E+00	0	0
6.810897E+02	0.0000E+00	0.0000E+00	1.700000E+01	4.452577E+01	-7.178473E+00	0.000000E+00	0	0
4.645539E+02	0.0000E+00	0.0000E+00	1.800000E+01	4.604578E+01	-5.903102E+00	0.000000E+00	0	0
3.163158E+02	0.0000E+00	0.0000E+00	1.900000E+01	4.702636E+01	-4.813779E+00	0.000000E+00	0	0
2.153445E+02	0.0000E+00	0.0000E+00	2.000000E+01	4.764590E+01	-4.091118E+00	0.000000E+00	0	0
1.467373E+02	0.0000E+00	0.0000E+00	2.100000E+01	4.808986E+01	-3.773303E+00	0.000000E+00	0	0
9.990404E+01	0.0000E+00	0.0000E+00	2.200000E+01	4.848906E+01	-3.843554E+00	0.000000E+00	0	0
6.818890E+01	0.0000E+00	0.0000E+00	2.300000E+01	4.892230E+01	-4.287386E+00	0.000000E+00	0	0
4.638027E+01	0.0000E+00	0.0000E+00	2.400000E+01	4.945661E+01	-5.127994E+00	0.000000E+00	0	0
3.158692E+01	0.0000E+00	0.0000E+00	2.500000E+01	5.014037E+01	-6.407338E+00	0.000000E+00	0	0
2.152204E+01	0.0000E+00	0.0000E+00	2.600000E+01	5.103328E+01	-8.212730E+00	0.000000E+00	0	0
1.468515E+01	0.0000E+00	0.0000E+00	2.700000E+01	5.220345E+01	-1.066704E+01	0.000000E+00	0	0
9.990411E+00	0.0000E+00	0.0000E+00	2.800000E+01	5.375937E+01	-1.398950E+01	0.000000E+00	0	0
