ZPLOT2 ASCII
  Saved Data, ZView:          3
  Experiment Type:            Sweep Frequency, Control Voltage
  Date:                       09-08-2015
  Time:                       21:51:08
  Open Circuit Potential (V): 0
  Begin User Comments:        0
  End User Comments:          0
  Begin Information:          Cell Information
    Surface Area:             1
    Density:                  0
    Weight:                   0
    Polarity:                 0
    PolarityI:                0
    Corrosion Unit Type:      0
    Reference Type:           0
    Reference Potential:      0
    User-Defined Potential:   0
    Stern-Geary:              26
  End Information:            Cell Information
  Null Configuration:         0,2,0,1,9.990411,316223.1
  Data Points:                28
  IndexZ:                     6CA657C1FA6B
  Freq(Hz)	Ampl	Bias	Time(Sec)	Z'(a)	Z''(b)	Aux	Err	Range
End Comments
3.162231E+05	0.0000E+00	0.0000E+00	1.000000E+00	1.304693E+01	-5.156966E-01	0.000000E+00	0	0
2.154419E+05	0.0000E+00	0.0000E+00	2.000000E+00	1.305998E+01	-7.560327E-01	0.000000E+00	0	0
1.467773E+05	0.0000E+00	0.0000E+00	3.000000E+00	1.308768E+01	-1.107683E+00	0.000000E+00	0	0
1.000244E+05	0.0000E+00	0.0000E+00	4.000000E+00	1.314651E+01	-1.620119E+00	0.000000E+00	0	0
6.812743E+04	0.0000E+00	0.0000E+00	5.000000E+00	1.327145E+01	-2.363431E+00	0.000000E+00	0	0
4.641113E+04	0.0000E+00	0.0000E+00	6.000000E+00	1.353382E+01	-3.424140E+00	0.000000E+00	0	0
3.162841E+04	0.0000E+00	0.0000E+00	7.000000E+00	1.407146E+01	-4.891048E+00	0.000000E+00	0	0
2.154541E+04	0.0000E+00	0.0000E+00	8.000000E+00	1.512285E+01	-6.800609E+00	0.000000E+00	0	0
1.467285E+04	0.0000E+00	0.0000E+00	9.000000E+00	1.699657E+01	-9.003697E+00	0.000000E+00	0	0
1.001527E+04	0.0000E+00	0.0000E+00	1.000000E+01	1.983593E+01	-1.105349E+01	0.000000E+00	0	0
6.856002E+03	0.0000E+00	0.0000E+00	1.100000E+01	2.333289E+01	-1.247530E+01	0.000000E+00	0	0
4.642427E+03	0.0000E+00	0.0000E+00	1.200000E+01	2.704219E+01	-1.328644E+01	0.000000E+00	0	0
3.160056E+03	0.0000E+00	0.0000E+00	1.300000E+01	3.057477E+01	-1.385863E+01	0.000000E+00	0	0
2.152933E+03	0.0000E+00	0.0000E+00	1.400000E+01	3.415393E+01	-1.443523E+01	0.000000E+00	0	0
1.468590E+03	0.0000E+00	0.0000E+00	1.500000E+01	3.788645E+01	-1.496617E+01	0.000000E+00	0	0
9.990404E+02	0.0000E+00	0.0000E+00	1.600000E+01	4.184561E+01	-1.547153E+01	0.000000E+00	0	0
6.810897E+02	0.0000E+00	0.0000E+00	1.700000E+01	4.621854E+01	-1.584954E+01	0.000000E+00	0	0
4.645539E+02	0.0000E+00	0.0000E+00	1.800000E+01	5.108219E+01	-1.554983E+01	0.000000E+00	0	0
3.163158E+02	0.0000E+00	0.0000E+00	1.900000E+01	5.580845E+01	-1.405828E+01	0.000000E+00	0	0
2.153445E+02	0.0000E+00	0.0000E+00	2.000000E+01	5.948510E+01	-1.167930E+01	0.000000E+00	0	0
1.467373E+02	0.0000E+00	0.0000E+00	2.100000E+01	6.184600E+01	-9.233927E+00	0.000000E+00	0	0
9.990404E+01	0.0000E+00	0.0000E+00	2.200000E+01	6.322524E+01	-7.286909E+00	0.000000E+00	0	0
6.818890E+01	0.0000E+00	0.0000E+00	2.300000E+01	6.404006E+01	-6.031835E+00	0.000000E+00	0	0
4.638027E+01	0.0000E+00	0.0000E+00	2.400000E+01	6.460969E+01	-5.432164E+00	0.000000E+00	0	0
3.158692E+01	0.0000E+00	0.0000E+00	2.500000E+01	6.511067E+01	-5.440548E+00	0.000000E+00	0	0
2.152204E+01	0.0000E+00	0.0000E+00	2.600000E+01	6.565722E+01	-6.020619E+00	0.000000E+00	0	0
1.468515E+01	0.0000E+00	0.0000E+00	2.700000E+01	6.632731E+01	-7.184161E+00	0.000000E+00	0	0
9.990411E+00	0.0000E+00	0.0000E+00	2.800000E+01	6.720233E+01	-9.022915E+00	0.000000E+00	0	0
