ZPLOT2 ASCII
  Saved Data, ZView:          3
  Experiment Type:            Sweep Frequency, Control Voltage
  Date:                       09-08-2015
  Time:                       21:58:13
  Open Circuit Potential (V): 0
  Begin User Comments:        0
  End User Comments:          0
  Begin Information:          Cell Information
    Surface Area:             1
    Density:                  0
    Weight:                   0
    Polarity:                 0
    PolarityI:                0
    Corrosion Unit Type:      0
    Reference Type:           0
    Reference Potential:      0
    User-Defined Potential:   0
    Stern-Geary:              26
  End Information:            Cell Information
  Null Configuration:         0,2,0,1,9.990411,316223.1
  Data Points:                28
  IndexZ:                     80731F0F1A11
  Freq(Hz)	Ampl	Bias	Time(Sec)	Z'(a)	Z''(b)	Aux	Err	Range
End Comments
3.162231E+05	0.0000E+00	0.0000E+00	1.000000E+00	1.515920E+01	-7.855759E-01	0.000000E+00	0	0
2.154419E+05	0.0000E+00	0.0000E+00	2.000000E+00	1.521159E+01	-1.141081E+00	0.000000E+00	0	0
1.467773E+05	0.0000E+00	0.0000E+00	3.000000E+00	1.531677E+01	-1.649495E+00	0.000000E+00	0	0
1.000244E+05	0.0000E+00	0.0000E+00	4.000000E+00	1.552535E+01	-2.358565E+00	0.000000E+00	0	0
6.812743E+04	0.0000E+00	0.0000E+00	5.000000E+00	1.592142E+01	-3.305108E+00	0.000000E+00	0	0
4.641113E+04	0.0000E+00	0.0000E+00	6.000000E+00	1.660516E+01	-4.476288E+00	0.000000E+00	0	0
3.162841E+04	0.0000E+00	0.0000E+00	7.000000E+00	1.762954E+01	-5.810832E+00	0.000000E+00	0	0
2.154541E+04	0.0000E+00	0.0000E+00	8.000000E+00	1.897057E+01	-7.304459E+00	0.000000E+00	0	0
1.467285E+04	0.0000E+00	0.0000E+00	9.000000E+00	2.067711E+01	-9.089153E+00	0.000000E+00	0	0
1.001527E+04	0.0000E+00	0.0000E+00	1.000000E+01	2.304189E+01	-1.122518E+01	0.000000E+00	0	0
6.856002E+03	0.0000E+00	0.0000E+00	1.100000E+01	2.644979E+01	-1.337955E+01	0.000000E+00	0	0
4.642427E+03	0.0000E+00	0.0000E+00	1.200000E+01	3.103566E+01	-1.486478E+01	0.000000E+00	0	0
3.160056E+03	0.0000E+00	0.0000E+00	1.300000E+01	3.585990E+01	-1.509984E+01	0.000000E+00	0	0
2.152933E+03	0.0000E+00	0.0000E+00	1.400000E+01	4.015889E+01	-1.448802E+01	0.000000E+00	0	0
1.468590E+03	0.0000E+00	0.0000E+00	1.500000E+01	4.389154E+01	-1.370493E+01	0.000000E+00	0	0
9.990404E+02	0.0000E+00	0.0000E+00	1.600000E+01	4.748695E+01	-1.286870E+01	0.000000E+00	0	0
6.810897E+02	0.0000E+00	0.0000E+00	1.700000E+01	5.093296E+01	-1.165873E+01	0.000000E+00	0	0
4.645539E+02	0.0000E+00	0.0000E+00	1.800000E+01	5.382446E+01	-9.993391E+00	0.000000E+00	0	0
3.163158E+02	0.0000E+00	0.0000E+00	1.900000E+01	5.589199E+01	-8.246891E+00	0.000000E+00	0	0
2.153445E+02	0.0000E+00	0.0000E+00	2.000000E+01	5.724737E+01	-6.842764E+00	0.000000E+00	0	0
1.467373E+02	0.0000E+00	0.0000E+00	2.100000E+01	5.818240E+01	-5.961238E+00	0.000000E+00	0	0
9.990404E+01	0.0000E+00	0.0000E+00	2.200000E+01	5.894960E+01	-5.602818E+00	0.000000E+00	0	0
6.818890E+01	0.0000E+00	0.0000E+00	2.300000E+01	5.970351E+01	-5.718821E+00	0.000000E+00	0	0
4.638027E+01	0.0000E+00	0.0000E+00	2.400000E+01	6.055939E+01	-6.272021E+00	0.000000E+00	0	0
3.158692E+01	0.0000E+00	0.0000E+00	2.500000E+01	6.158292E+01	-7.246509E+00	0.000000E+00	0	0
2.152204E+01	0.0000E+00	0.0000E+00	2.600000E+01	6.284247E+01	-8.660230E+00	0.000000E+00	0	0
1.468515E+01	0.0000E+00	0.0000E+00	2.700000E+01	6.440400E+01	-1.055612E+01	0.000000E+00	0	0
9.990411E+00	0.0000E+00	0.0000E+00	2.800000E+01	6.637093E+01	-1.304104E+01	0.000000E+00	0	0
